     0  1  2  3  4  5  6  7  8  9  a  b  c  d  e  f    0123456789abcdef
00: ff ff ff ff ff ff ff ff ff 52 00 fa 00 d8 bf 03    .........R.?.???
10: 10 17 38 18 44 02 6e 50 64 4b 3c 3c 0a ff 40 ff    ??8?D?nPdK<<?.@.
20: eb 97 8d 81 64 00 96 00 00 80 00 80 3c 7f 96 70    ????d.?..?.?<??p
30: 4e 02 09 e5 e4 09 6f 0f 0a 2f 03 0a 41 f9 09 00    N?????o??/??A??.
40: 00 01 00 01 00 07 98 00 64 00 64 00 64 00 00 00    .?.?.??.d.d.d...
50: 00 80 00 80 00 80 00 80 00 80 00 80 00 80 00 80    .?.?.?.?.?.?.?.?
60: c4 7e 00 83 01 00 92 2a 00 00 00 00 00 00 00 00    ?~.??.?*........
70: 9e 81 00 80 68 82 e0 7c 18 01 00 00 00 00 00 00    ??.?h??|??......
80: 00 00 00 00 00 00 10 13 00 0e 00 07 00 12 03 01    ......??.?.?.???
90: 00 00 00 00 00 00 11 15 00 0f 00 09 00 00 04 02    ......??.?.?..??
a0: 00 00 00 00 00 00 00 00 00 00 00 0a 00 00 00 00    ...........?....
b0: 00 00 00 00 00 00 00 00 00 00 00 0b 00 00 00 00    ...........?....
c0: 0d 00 02 10 0d 00 03 20 20 00 03 20 20 00 03 10    ?.???.?  .?  .??
d0: 00 80 00 80 00 80 00 80 41 00 03 05 0d 00 02 20    .?.?.?.?A.???.? 
e0: 00 80 00 80 00 80 00 80 00 80 00 80 00 80 00 80    .?.?.?.?.?.?.?.?
f0: 00 80 ff ff ff ff ff ff 5a c7 cc 0f 0f 92 00 00    .?......Z?????..
